
T178C 000:034 SEGGER J-Link V6.10i Log File (0000ms, 0015ms total)
T178C 000:034 DLL Compiled: Oct 25 2016 19:31:51 (0000ms, 0015ms total)
T178C 000:034 Logging started @ 2018-05-26 15:50 (0000ms, 0015ms total)
T178C 000:034 JLINK_SetWarnOutHandler(...) (0000ms, 0015ms total)
T178C 000:034 JLINK_OpenEx(...)
Firmware: J-Link ARM-OB STM32 compiled Aug 22 2012 19:52:04
Hardware: V7.00
S/N: 20090928
Feature(s): RDI,FlashDL,FlashBP,JFlash,GDBFULLWEBSRV Webserver running on local port 19080 (0009ms, 0024ms total)
T178C 000:034   returns O.K. (0009ms, 0024ms total)
T178C 000:043 JLINK_SetErrorOutHandler(...) (0000ms, 0024ms total)
T178C 000:043 JLINK_ExecCommand("ProjectFile = "C:\Users\HZW\Desktop\CO\Copter\MDK-ARM\JLinkSettings.ini"", ...).   returns 0x00 (0126ms, 0150ms total)
T178C 000:169 JLINK_ExecCommand("Device = STM32F303CC", ...). Device "STM32F303CC" selected.  returns 0x00 (0000ms, 0150ms total)
T178C 000:169 JLINK_ExecCommand("DisableConnectionTimeout", ...).   returns 0x01 (0000ms, 0150ms total)
T178C 000:169 JLINK_GetHardwareVersion()  returns 0x11170 (0000ms, 0150ms total)
T178C 000:169 JLINK_GetDLLVersion()  returns 61009 (0000ms, 0150ms total)
T178C 000:169 JLINK_GetFirmwareString(...) (0000ms, 0150ms total)
T178C 000:169 JLINK_GetDLLVersion()  returns 61009 (0000ms, 0150ms total)
T178C 000:169 JLINK_GetCompileDateTime() (0000ms, 0150ms total)
T178C 000:169 JLINK_GetFirmwareString(...) (0000ms, 0150ms total)
T178C 000:169 JLINK_GetHardwareVersion()  returns 0x11170 (0000ms, 0150ms total)
T178C 000:169 JLINK_TIF_Select(JLINKARM_TIF_SWD)  returns 0x00 (0001ms, 0151ms total)
T178C 000:170 JLINK_SetSpeed(5000) (0000ms, 0151ms total)
T178C 000:170 JLINK_GetId() >0x108 TIF>Found SWD-DP with ID 0x2BA01477 >0x0D TIF> >0x28 TIF> >0x0D TIF> >0x28 TIF> >0x0D TIF> >0x28 TIF> >0x0D TIF> >0x28 TIF> >0x0D TIF> >0x21 TIF> >0x0D TIF> >0x28 TIF> >0x0D TIF> >0x28 TIF> >0x0D TIF> >0x28 TIF> >0x0D TIF> >0x21 TIF> >0x0D TIF> >0x21 TIF> >0x0D TIF> >0x28 TIF> >0x0D TIF> >0x21 TIF> >0x0D TIF> >0x21 TIF> >0x0D TIF> >0x28 TIF> >0x0D TIF> >0x21 TIF> >0x0D TIF> >0x21 TIF> >0x0D TIF> >0x28 TIF> >0x0D TIF> >0x21 TIF> >0x0D TIF> >0x21 TIF> >0x0D TIF>
 >0x28 TIF> >0x0D TIF> >0x21 TIF> >0x0D TIF> >0x21 TIF> >0x0D TIF> >0x28 TIF> >0x0D TIF> >0x21 TIF> >0x0D TIF> >0x21 TIF> >0x0D TIF> >0x28 TIF> >0x0D TIF> >0x21 TIF> >0x0D TIF> >0x21 TIF> >0x0D TIF> >0x28 TIF> >0x0D TIF> >0x21 TIF> >0x0D TIF> >0x21 TIF> >0x108 TIF>Found SWD-DP with ID 0x2BA01477 >0x0D TIF> >0x28 TIF> >0x0D TIF> >0x28 TIF> >0x0D TIF> >0x28 TIF> >0x0D TIF> >0x28 TIF> >0x0D TIF> >0x21 TIF> >0x0D TIF> >0x28 TIF> >0x0D TIF> >0x28 TIF> >0x0D TIF> >0x21 TIF> >0x0D TIF> >0x21 TIF> >0x0D TIF>
 >0x21 TIF>AP-IDR: 0x24770011, Type: AHB-AP >0x0D TIF> >0x28 TIF> >0x0D TIF> >0x28 TIF> >0x0D TIF> >0x28 TIF> >0x0D TIF> >0x21 TIF> >0x0D TIF> >0x21 TIF> >0x0D TIF> >0x28 TIF> >0x0D TIF> >0x21 TIF> >0x0D TIF> >0x21 TIF>Found Cortex-M4 r0p1, Little endian. -- CPU_ReadMem(4 bytes @ 0xE000EDF0) -- CPU_WriteMem(4 bytes @ 0xE000EDF0) -- CPU_ReadMem(4 bytes @ 0xE0002000)FPUnit: 6 code (BP) slots and 2 literal slots -- CPU_ReadMem(4 bytes @ 0xE000EDFC) -- CPU_WriteMem(4 bytes @ 0xE000EDFC)
 -- CPU_ReadMem(4 bytes @ 0xE0001000) -- CPU_WriteMem(4 bytes @ 0xE0001000) -- CPU_ReadMem(4 bytes @ 0xE000ED88) -- CPU_WriteMem(4 bytes @ 0xE000ED88) -- CPU_ReadMem(4 bytes @ 0xE000ED88) -- CPU_WriteMem(4 bytes @ 0xE000ED88)CoreSight components:ROMTbl 0 @ E00FF000 -- CPU_ReadMem(16 bytes @ 0xE00FF000) -- CPU_ReadMem(16 bytes @ 0xE000EFF0) -- CPU_ReadMem(16 bytes @ 0xE000EFE0)ROMTbl 0 [0]: FFF0F000, CID: B105E00D, PID: 000BB00C SCS -- CPU_ReadMem(16 bytes @ 0xE0001FF0)
 -- CPU_ReadMem(16 bytes @ 0xE0001FE0)ROMTbl 0 [1]: FFF02000, CID: B105E00D, PID: 003BB002 DWT -- CPU_ReadMem(16 bytes @ 0xE0002FF0) -- CPU_ReadMem(16 bytes @ 0xE0002FE0)ROMTbl 0 [2]: FFF03000, CID: B105E00D, PID: 002BB003 FPB -- CPU_ReadMem(16 bytes @ 0xE0000FF0) -- CPU_ReadMem(16 bytes @ 0xE0000FE0)ROMTbl 0 [3]: FFF01000, CID: B105E00D, PID: 003BB001 ITM -- CPU_ReadMem(16 bytes @ 0xE00FF010) -- CPU_ReadMem(16 bytes @ 0xE0040FF0) -- CPU_ReadMem(16 bytes @ 0xE0040FE0)
ROMTbl 0 [4]: FFF41000, CID: B105900D, PID: 000BB9A1 TPIU -- CPU_ReadMem(16 bytes @ 0xE0041FF0) -- CPU_ReadMem(16 bytes @ 0xE0041FE0)ROMTbl 0 [5]: FFF42000, CID: B105900D, PID: 000BB925 ETM -- CPU is running -- CPU_WriteMem(4 bytes @ 0xE000EDF0) -- CPU is running -- CPU_WriteMem(4 bytes @ 0xE000EDFC) >0x35 TIF> -- CPU is running -- CPU_WriteMem(4 bytes @ 0xE000ED0C) -- CPU is running -- CPU_ReadMem(4 bytes @ 0xE000EDF0) -- CPU is running -- CPU_ReadMem(4 bytes @ 0xE000EDF0) -- CPU is running
 -- CPU_WriteMem(4 bytes @ 0xE000EDF0) -- CPU is running -- CPU_WriteMem(4 bytes @ 0xE000EDFC) -- CPU is running -- CPU_ReadMem(4 bytes @ 0xE000EDF0) -- CPU_WriteMem(4 bytes @ 0xE0002000) -- CPU_ReadMem(4 bytes @ 0xE000EDFC) -- CPU_ReadMem(4 bytes @ 0xE0001000) -- CPU_WriteMem(32768 bytes @ 0x20000000) >0x0D TIF> >0x21 TIF>  returns 0x2BA01477 (0419ms, 0570ms total)
T178C 000:589 JLINK_GetDLLVersion()  returns 61009 (0000ms, 0570ms total)
T178C 000:589 JLINK_CORE_GetFound()  returns 0xE0000FF (0000ms, 0570ms total)
T178C 000:589 JLINK_GetDebugInfo(0x100) -- Value=0xE00FF000  returns 0x00 (0000ms, 0570ms total)
T178C 000:589 JLINK_GetDebugInfo(0x100) -- Value=0xE00FF000  returns 0x00 (0000ms, 0570ms total)
T178C 000:589 JLINK_GetDebugInfo(0x101) -- Value=0xE0041000  returns 0x00 (0000ms, 0570ms total)
T178C 000:589 JLINK_GetDebugInfo(0x102) -- Value=0x00000000  returns 0x00 (0000ms, 0570ms total)
T178C 000:589 JLINK_GetDebugInfo(0x103) -- Value=0xE0040000  returns 0x00 (0000ms, 0570ms total)
T178C 000:589 JLINK_GetDebugInfo(0x104) -- Value=0xE0000000  returns 0x00 (0000ms, 0570ms total)
T178C 000:589 JLINK_GetDebugInfo(0x105) -- Value=0xE0001000  returns 0x00 (0000ms, 0570ms total)
T178C 000:589 JLINK_GetDebugInfo(0x106) -- Value=0xE0002000  returns 0x00 (0000ms, 0570ms total)
T178C 000:589 JLINK_GetDebugInfo(0x107) -- Value=0xE000E000  returns 0x00 (0000ms, 0570ms total)
T178C 000:589 JLINK_GetDebugInfo(0x10C) -- Value=0xE000EDF0  returns 0x00 (0000ms, 0570ms total)
T178C 000:589 JLINK_ReadMemU32(0xE000EF40, 0x0001 Items, ...) -- CPU_ReadMem(4 bytes @ 0xE000EF40) - Data: 21 00 11 10  returns 0x01 (0001ms, 0571ms total)
T178C 000:590 JLINK_ReadMemU32(0xE000EF44, 0x0001 Items, ...) -- CPU_ReadMem(4 bytes @ 0xE000EF44) - Data: 11 00 00 11  returns 0x01 (0001ms, 0572ms total)
T178C 000:591 JLINK_ReadMemU32(0xE000ED00, 0x0001 Items, ...) -- CPU_ReadMem(4 bytes @ 0xE000ED00) - Data: 41 C2 0F 41  returns 0x01 (0001ms, 0573ms total)
T178C 000:592 JLINK_SetResetType(JLINKARM_RESET_TYPE_NORMAL)  returns JLINKARM_RESET_TYPE_NORMAL (0000ms, 0573ms total)
T178C 000:592 JLINK_Reset() -- CPU_WriteMem(4 bytes @ 0xE000EDF0) -- CPU_WriteMem(4 bytes @ 0xE000EDFC) >0x35 TIF> -- CPU_WriteMem(4 bytes @ 0xE000ED0C) -- CPU_ReadMem(4 bytes @ 0xE000EDF0) -- CPU_ReadMem(4 bytes @ 0xE000EDF0) -- CPU_WriteMem(4 bytes @ 0xE000EDF0) -- CPU_WriteMem(4 bytes @ 0xE000EDFC) -- CPU is running -- CPU_ReadMem(4 bytes @ 0xE000EDF0) -- CPU_WriteMem(4 bytes @ 0xE0002000) -- CPU_ReadMem(4 bytes @ 0xE000EDFC) -- CPU_ReadMem(4 bytes @ 0xE0001000) (0022ms, 0595ms total)
T178C 000:615 JLINK_ReadReg(R15 (PC))  returns 0x08000258 (0000ms, 0595ms total)
T178C 000:615 JLINK_ReadReg(XPSR)  returns 0x01000000 (0000ms, 0595ms total)
T178C 000:615 JLINK_Halt()  returns 0x00 (0000ms, 0595ms total)
T178C 000:615 JLINK_IsHalted()  returns TRUE (0000ms, 0595ms total)
T178C 000:615 JLINK_ReadMemU32(0xE000EDF0, 0x0001 Items, ...) -- CPU_ReadMem(4 bytes @ 0xE000EDF0) - Data: 03 00 03 00  returns 0x01 (0001ms, 0596ms total)
T178C 000:616 JLINK_WriteU32(0xE000EDF0, 0xA05F0003) -- CPU_WriteMem(4 bytes @ 0xE000EDF0)  returns 0x00 (0001ms, 0597ms total)
T178C 000:617 JLINK_WriteU32(0xE000EDFC, 0x01000000) -- CPU_WriteMem(4 bytes @ 0xE000EDFC)  returns 0x00 (0001ms, 0598ms total)
T178C 000:618 JLINK_GetHWStatus(...)  returns 0x00 (0000ms, 0598ms total)
T178C 000:618 JLINK_GetNumBPUnits(Type = 0xFFFFFF00)  returns 0x06 (0000ms, 0598ms total)
T178C 000:618 JLINK_GetNumBPUnits(Type = 0xF0)  returns 0x2000 (0000ms, 0598ms total)
T178C 000:618 JLINK_GetNumWPUnits()  returns 0x04 (0000ms, 0598ms total)
T178C 000:618 JLINK_GetSpeed()  returns 0xFA0 (0000ms, 0598ms total)
T178C 000:618 JLINK_ReadMemU32(0xE000E004, 0x0001 Items, ...) -- CPU_ReadMem(4 bytes @ 0xE000E004) - Data: 02 00 00 00  returns 0x01 (0001ms, 0599ms total)
T178C 000:619 JLINK_ReadMemU32(0xE000E004, 0x0001 Items, ...) -- CPU_ReadMem(4 bytes @ 0xE000E004) - Data: 02 00 00 00  returns 0x01 (0001ms, 0600ms total)
T178C 000:620 JLINK_WriteMem(0xE0001000, 0x001C Bytes, ...) - Data: 01 00 00 00 00 00 00 00 00 00 00 00 00 00 00 00 ... -- CPU_WriteMem(28 bytes @ 0xE0001000)  returns 0x1C (0003ms, 0603ms total)
T178C 000:623 JLINK_ReadMem (0xE0001000, 0x001C Bytes, ...) -- CPU_ReadMem(28 bytes @ 0xE0001000) - Data: 01 00 00 40 00 00 00 00 00 00 00 00 00 00 00 00 ...  returns 0x00 (0001ms, 0604ms total)
T178C 000:624 JLINK_ReadReg(R15 (PC))  returns 0x08000258 (0000ms, 0604ms total)
T178C 000:624 JLINK_ReadReg(XPSR)  returns 0x01000000 (0000ms, 0604ms total)
T178C 000:797 JLINK_SetResetType(JLINKARM_RESET_TYPE_NORMAL)  returns JLINKARM_RESET_TYPE_NORMAL (0000ms, 0604ms total)
T178C 000:797 JLINK_Reset() -- CPU_WriteMem(4 bytes @ 0xE000EDF0) -- CPU_WriteMem(4 bytes @ 0xE000EDFC) >0x35 TIF> -- CPU_WriteMem(4 bytes @ 0xE000ED0C) -- CPU_ReadMem(4 bytes @ 0xE000EDF0) -- CPU_ReadMem(4 bytes @ 0xE000EDF0) -- CPU_WriteMem(4 bytes @ 0xE000EDF0) -- CPU_WriteMem(4 bytes @ 0xE000EDFC) -- CPU is running -- CPU_ReadMem(4 bytes @ 0xE000EDF0) -- CPU_WriteMem(4 bytes @ 0xE0002000) -- CPU_ReadMem(4 bytes @ 0xE000EDFC) -- CPU_ReadMem(4 bytes @ 0xE0001000) (0018ms, 0622ms total)
T178C 000:815 JLINK_ReadReg(R15 (PC))  returns 0x08000258 (0000ms, 0622ms total)
T178C 000:815 JLINK_ReadReg(XPSR)  returns 0x01000000 (0000ms, 0622ms total)
T178C 000:944 JLINK_ReadMem (0x08000258, 0x003C Bytes, ...) -- CPU_ReadMem(128 bytes @ 0x08000240) -- Updating C cache (128 bytes @ 0x08000240) -- Read from C cache (60 bytes @ 0x08000258) - Data: 06 48 80 47 06 48 00 47 FE E7 FE E7 FE E7 FE E7 ...  returns 0x00 (0002ms, 0624ms total)
T1860 002:138 JLINK_SetBPEx(Addr = 0x08008114, Type = 0xFFFFFFF2)  returns 0x00000001 (0000ms, 0624ms total)
T1860 002:138 JLINK_SetBPEx(Addr = 0x08004DC4, Type = 0xFFFFFFF2)  returns 0x00000002 (0000ms, 0624ms total)
T1860 002:138 JLINK_SetBPEx(Addr = 0x08009030, Type = 0xFFFFFFF2)  returns 0x00000003 (0000ms, 0624ms total)
T1860 002:138 JLINK_Go() -- CPU_WriteMem(4 bytes @ 0xE0002000) -- CPU_WriteMem(4 bytes @ 0xE0002000) -- CPU_WriteMem(4 bytes @ 0xE0002000) -- CPU_ReadMem(4 bytes @ 0xE0001000) -- CPU_WriteMem(4 bytes @ 0xE0002008) -- CPU_WriteMem(4 bytes @ 0xE000200C) -- CPU_WriteMem(4 bytes @ 0xE0002010) -- CPU_WriteMem(4 bytes @ 0xE0002014) -- CPU_WriteMem(4 bytes @ 0xE0002018) -- CPU_WriteMem(4 bytes @ 0xE000201C) -- CPU_WriteMem(4 bytes @ 0xE0001004) (0006ms, 0630ms total)
T1860 002:245 JLINK_IsHalted()  returns TRUE (0003ms, 0633ms total)
T1860 002:248 JLINK_Halt()  returns 0x00 (0000ms, 0630ms total)
T1860 002:248 JLINK_IsHalted()  returns TRUE (0000ms, 0630ms total)
T1860 002:248 JLINK_IsHalted()  returns TRUE (0000ms, 0630ms total)
T1860 002:248 JLINK_IsHalted()  returns TRUE (0000ms, 0630ms total)
T1860 002:248 JLINK_ReadReg(R15 (PC))  returns 0x08008114 (0000ms, 0630ms total)
T1860 002:248 JLINK_ReadReg(XPSR)  returns 0x61000000 (0000ms, 0630ms total)
T1860 002:248 JLINK_ClrBPEx(BPHandle = 0x00000001)  returns 0x00 (0000ms, 0630ms total)
T1860 002:248 JLINK_ClrBPEx(BPHandle = 0x00000002)  returns 0x00 (0000ms, 0630ms total)
T1860 002:248 JLINK_ClrBPEx(BPHandle = 0x00000003)  returns 0x00 (0000ms, 0630ms total)
T1860 002:248 JLINK_ReadMemU32(0xE000ED30, 0x0001 Items, ...) -- CPU_ReadMem(4 bytes @ 0xE000ED30) - Data: 03 00 00 00  returns 0x01 (0000ms, 0630ms total)
T1860 002:248 JLINK_ReadMemU32(0xE0001028, 0x0001 Items, ...) -- CPU_ReadMem(4 bytes @ 0xE0001028) - Data: 00 00 00 00  returns 0x01 (0001ms, 0631ms total)
T1860 002:249 JLINK_ReadMemU32(0xE0001038, 0x0001 Items, ...) -- CPU_ReadMem(4 bytes @ 0xE0001038) - Data: 00 02 00 00  returns 0x01 (0000ms, 0631ms total)
T1860 002:249 JLINK_ReadMemU32(0xE0001048, 0x0001 Items, ...) -- CPU_ReadMem(4 bytes @ 0xE0001048) - Data: 00 00 00 00  returns 0x01 (0001ms, 0632ms total)
T1860 002:250 JLINK_ReadMemU32(0xE0001058, 0x0001 Items, ...) -- CPU_ReadMem(4 bytes @ 0xE0001058) - Data: 00 00 00 00  returns 0x01 (0000ms, 0632ms total)
T1860 002:250 JLINK_ReadReg(R0)  returns 0x08008115 (0000ms, 0632ms total)
T1860 002:250 JLINK_ReadReg(R1)  returns 0x20002550 (0000ms, 0632ms total)
T1860 002:250 JLINK_ReadReg(R2)  returns 0x00000000 (0000ms, 0632ms total)
T1860 002:250 JLINK_ReadReg(R3)  returns 0x08006E01 (0000ms, 0632ms total)
T1860 002:250 JLINK_ReadReg(R4)  returns 0x08009A40 (0000ms, 0632ms total)
T1860 002:250 JLINK_ReadReg(R5)  returns 0x08009A40 (0000ms, 0632ms total)
T1860 002:250 JLINK_ReadReg(R6)  returns 0x00000000 (0000ms, 0632ms total)
T1860 002:250 JLINK_ReadReg(R7)  returns 0x00000000 (0000ms, 0632ms total)
T1860 002:250 JLINK_ReadReg(R8)  returns 0x00000000 (0000ms, 0632ms total)
T1860 002:250 JLINK_ReadReg(R9)  returns 0x00000000 (0000ms, 0632ms total)
T1860 002:250 JLINK_ReadReg(R10)  returns 0x00000000 (0000ms, 0632ms total)
T1860 002:250 JLINK_ReadReg(R11)  returns 0x00000000 (0000ms, 0632ms total)
T1860 002:250 JLINK_ReadReg(R12)  returns 0x00000000 (0000ms, 0632ms total)
T1860 002:250 JLINK_ReadReg(R13 (SP))  returns 0x20002550 (0000ms, 0632ms total)
T1860 002:250 JLINK_ReadReg(R14)  returns 0x08002F8D (0000ms, 0632ms total)
T1860 002:250 JLINK_ReadReg(R15 (PC))  returns 0x08008114 (0000ms, 0632ms total)
T1860 002:250 JLINK_ReadReg(XPSR)  returns 0x61000000 (0000ms, 0632ms total)
T1860 002:250 JLINK_ReadReg(MSP)  returns 0x20002550 (0000ms, 0632ms total)
T1860 002:250 JLINK_ReadReg(PSP)  returns 0x00000000 (0000ms, 0632ms total)
T1860 002:250 JLINK_ReadReg(CFBP)  returns 0x00000000 (0000ms, 0632ms total)
T1860 002:250 JLINK_ReadReg(FPSCR)  returns 0x00000000 (0005ms, 0637ms total)
T1860 002:255 JLINK_ReadReg(FPS0)  returns 0x00000000 (0000ms, 0637ms total)
T1860 002:255 JLINK_ReadReg(FPS1)  returns 0x00000000 (0000ms, 0637ms total)
T1860 002:255 JLINK_ReadReg(FPS2)  returns 0x00000000 (0000ms, 0637ms total)
T1860 002:255 JLINK_ReadReg(FPS3)  returns 0x00000000 (0000ms, 0637ms total)
T1860 002:255 JLINK_ReadReg(FPS4)  returns 0x00000000 (0000ms, 0637ms total)
T1860 002:255 JLINK_ReadReg(FPS5)  returns 0x00000000 (0000ms, 0637ms total)
T1860 002:255 JLINK_ReadReg(FPS6)  returns 0x00000000 (0000ms, 0637ms total)
T1860 002:255 JLINK_ReadReg(FPS7)  returns 0x00000000 (0000ms, 0637ms total)
T1860 002:255 JLINK_ReadReg(FPS8)  returns 0x00000000 (0000ms, 0637ms total)
T1860 002:255 JLINK_ReadReg(FPS9)  returns 0x00000000 (0000ms, 0637ms total)
T1860 002:255 JLINK_ReadReg(FPS10)  returns 0x00000000 (0000ms, 0637ms total)
T1860 002:255 JLINK_ReadReg(FPS11)  returns 0x00000000 (0000ms, 0637ms total)
T1860 002:255 JLINK_ReadReg(FPS12)  returns 0x00000000 (0000ms, 0637ms total)
T1860 002:255 JLINK_ReadReg(FPS13)  returns 0x00000000 (0000ms, 0637ms total)
T1860 002:255 JLINK_ReadReg(FPS14)  returns 0x00000000 (0000ms, 0637ms total)
T1860 002:255 JLINK_ReadReg(FPS15)  returns 0x00000000 (0000ms, 0637ms total)
T1860 002:255 JLINK_ReadReg(FPS16)  returns 0x00000000 (0000ms, 0637ms total)
T1860 002:256 JLINK_ReadReg(FPS17)  returns 0x00000000 (0000ms, 0638ms total)
T1860 002:256 JLINK_ReadReg(FPS18)  returns 0x00000000 (0000ms, 0638ms total)
T1860 002:256 JLINK_ReadReg(FPS19)  returns 0x00000000 (0000ms, 0638ms total)
T1860 002:256 JLINK_ReadReg(FPS20)  returns 0x00000000 (0000ms, 0638ms total)
T1860 002:256 JLINK_ReadReg(FPS21)  returns 0x00000000 (0000ms, 0638ms total)
T1860 002:256 JLINK_ReadReg(FPS22)  returns 0x00000000 (0000ms, 0638ms total)
T1860 002:256 JLINK_ReadReg(FPS23)  returns 0x00000000 (0000ms, 0638ms total)
T1860 002:256 JLINK_ReadReg(FPS24)  returns 0x00000000 (0000ms, 0638ms total)
T1860 002:256 JLINK_ReadReg(FPS25)  returns 0x00000000 (0000ms, 0638ms total)
T1860 002:256 JLINK_ReadReg(FPS26)  returns 0x00000000 (0000ms, 0638ms total)
T1860 002:256 JLINK_ReadReg(FPS27)  returns 0x00000000 (0000ms, 0638ms total)
T1860 002:256 JLINK_ReadReg(FPS28)  returns 0x00000000 (0000ms, 0638ms total)
T1860 002:256 JLINK_ReadReg(FPS29)  returns 0x00000000 (0000ms, 0638ms total)
T1860 002:256 JLINK_ReadReg(FPS30)  returns 0x00000000 (0000ms, 0638ms total)
T1860 002:256 JLINK_ReadReg(FPS31)  returns 0x00000000 (0000ms, 0638ms total)
T178C 002:258 JLINK_ReadMemU32(0xE0001004, 0x0001 Items, ...) -- CPU_ReadMem(4 bytes @ 0xE0001004) - Data: EE 38 00 00  returns 0x01 (0001ms, 0639ms total)
T1860 004:680 JLINK_SetBPEx(Addr = 0x08004DC4, Type = 0xFFFFFFF2)  returns 0x00000004 (0000ms, 0639ms total)
T1860 004:680 JLINK_SetBPEx(Addr = 0x08009030, Type = 0xFFFFFFF2)  returns 0x00000005 (0000ms, 0639ms total)
T1860 004:680 JLINK_Go() -- CPU_WriteMem(4 bytes @ 0xE0002000) -- CPU_WriteMem(4 bytes @ 0xE0002000) -- CPU_ReadMem(4 bytes @ 0xE0001000) -- CPU_WriteMem(4 bytes @ 0xE0002008) -- CPU_WriteMem(4 bytes @ 0xE000200C) -- CPU_WriteMem(4 bytes @ 0xE0002010) (0004ms, 0643ms total)
T1860 004:785 JLINK_IsHalted()  returns FALSE (0000ms, 0643ms total)
T1860 004:886 JLINK_IsHalted()  returns FALSE (0000ms, 0643ms total)
T1860 004:988 JLINK_IsHalted()  returns FALSE (0000ms, 0643ms total)
T1860 005:088 JLINK_IsHalted()  returns FALSE (0000ms, 0643ms total)
T1860 005:190 JLINK_IsHalted()  returns FALSE (0000ms, 0643ms total)
T1860 005:291 JLINK_ReadMemU32(0xE0001004, 0x0001 Items, ...) -- CPU is running -- CPU_ReadMem(4 bytes @ 0xE0001004) - Data: 48 32 98 02  returns 0x01 (0000ms, 0643ms total)
T1860 005:312 JLINK_IsHalted()  returns FALSE (0001ms, 0644ms total)
T1860 005:414 JLINK_IsHalted()  returns FALSE (0000ms, 0643ms total)
T1860 005:515 JLINK_IsHalted()  returns FALSE (0000ms, 0643ms total)
T1860 005:616 JLINK_IsHalted()  returns FALSE (0000ms, 0643ms total)
T1860 005:717 JLINK_IsHalted()  returns FALSE (0000ms, 0643ms total)
T1860 005:818 JLINK_ReadMemU32(0xE0001004, 0x0001 Items, ...) -- CPU is running - Data: 48 32 98 02  returns 0x01 (0000ms, 0643ms total)
T1860 005:842 JLINK_IsHalted()  returns FALSE (0001ms, 0644ms total)
T1860 005:944 JLINK_IsHalted()  returns FALSE (0000ms, 0643ms total)
T1860 006:045 JLINK_IsHalted()  returns FALSE (0000ms, 0643ms total)
T1860 006:147 JLINK_IsHalted()  returns FALSE (0000ms, 0643ms total)
T1860 006:248 JLINK_IsHalted()  returns FALSE (0000ms, 0643ms total)
T1860 006:349 JLINK_ReadMemU32(0xE0001004, 0x0001 Items, ...) -- CPU is running - Data: 48 32 98 02  returns 0x01 (0000ms, 0643ms total)
T1860 006:358 JLINK_IsHalted()  returns FALSE (0000ms, 0643ms total)
T1860 006:458 JLINK_IsHalted()  returns FALSE (0000ms, 0643ms total)
T1860 006:560 JLINK_IsHalted()  returns FALSE (0000ms, 0643ms total)
T1860 006:661 JLINK_IsHalted()  returns FALSE (0000ms, 0643ms total)
T1860 006:762 JLINK_IsHalted()  returns FALSE (0000ms, 0643ms total)
T1860 006:863 JLINK_ReadMemU32(0xE0001004, 0x0001 Items, ...) -- CPU is running - Data: 48 32 98 02  returns 0x01 (0000ms, 0643ms total)
T1860 006:885 JLINK_IsHalted()  returns FALSE (0001ms, 0644ms total)
T1860 006:987 JLINK_IsHalted()  returns FALSE (0000ms, 0643ms total)
T1860 007:088 JLINK_IsHalted()  returns FALSE (0000ms, 0643ms total)
T1860 007:189 JLINK_IsHalted()  returns FALSE (0000ms, 0643ms total)
T1860 007:290 JLINK_IsHalted()  returns FALSE (0000ms, 0643ms total)
T1860 007:391 JLINK_ReadMemU32(0xE0001004, 0x0001 Items, ...) -- CPU is running - Data: 48 32 98 02  returns 0x01 (0000ms, 0643ms total)
T1860 007:406 JLINK_IsHalted()  returns FALSE (0000ms, 0643ms total)
T1860 007:507 JLINK_IsHalted()  returns FALSE (0000ms, 0643ms total)
T1860 007:608 JLINK_IsHalted()  returns FALSE (0000ms, 0643ms total)
T1860 007:709 JLINK_IsHalted()  returns FALSE (0000ms, 0643ms total)
T1860 007:810 JLINK_IsHalted()  returns FALSE (0000ms, 0643ms total)
T1860 007:911 JLINK_ReadMemU32(0xE0001004, 0x0001 Items, ...) -- CPU is running - Data: 48 32 98 02  returns 0x01 (0000ms, 0643ms total)
T1860 007:941 JLINK_IsHalted()  returns FALSE (0000ms, 0643ms total)
T1860 008:042 JLINK_IsHalted()  returns FALSE (0000ms, 0643ms total)
T1860 008:144 JLINK_IsHalted()  returns FALSE (0000ms, 0643ms total)
T1860 008:245 JLINK_IsHalted()  returns FALSE (0000ms, 0643ms total)
T1860 008:346 JLINK_IsHalted()  returns FALSE (0000ms, 0643ms total)
T1860 008:447 JLINK_ReadMemU32(0xE0001004, 0x0001 Items, ...) -- CPU is running - Data: 48 32 98 02  returns 0x01 (0000ms, 0643ms total)
T1860 008:455 JLINK_IsHalted()  returns FALSE (0001ms, 0644ms total)
T1860 008:557 JLINK_IsHalted()  returns FALSE (0000ms, 0643ms total)
T1860 008:658 JLINK_IsHalted()  returns FALSE (0000ms, 0643ms total)
T1860 008:759 JLINK_IsHalted()  returns FALSE (0000ms, 0643ms total)
T1860 008:861 JLINK_IsHalted()  returns FALSE (0000ms, 0643ms total)
T1860 008:962 JLINK_ReadMemU32(0xE0001004, 0x0001 Items, ...) -- CPU is running - Data: 48 32 98 02  returns 0x01 (0000ms, 0643ms total)
T1860 008:987 JLINK_IsHalted()  returns FALSE (0001ms, 0644ms total)
T1860 009:089 JLINK_IsHalted()  returns FALSE (0000ms, 0643ms total)
T1860 009:190 JLINK_IsHalted()  returns FALSE (0000ms, 0643ms total)
T1860 009:291 JLINK_IsHalted()  returns FALSE (0000ms, 0643ms total)
T1860 009:393 JLINK_IsHalted()  returns FALSE (0000ms, 0643ms total)
T1860 009:494 JLINK_ReadMemU32(0xE0001004, 0x0001 Items, ...) -- CPU is running - Data: 48 32 98 02  returns 0x01 (0000ms, 0643ms total)
T1860 009:515 JLINK_IsHalted()  returns FALSE (0001ms, 0644ms total)
T1860 009:617 JLINK_IsHalted()  returns FALSE (0000ms, 0643ms total)
T1860 009:718 JLINK_IsHalted()  returns FALSE (0000ms, 0643ms total)
T1860 009:819 JLINK_IsHalted()  returns FALSE (0000ms, 0643ms total)
T1860 009:921 JLINK_IsHalted()  returns FALSE (0000ms, 0643ms total)
T1860 010:022 JLINK_ReadMemU32(0xE0001004, 0x0001 Items, ...) -- CPU is running - Data: 48 32 98 02  returns 0x01 (0000ms, 0643ms total)
T1860 010:046 JLINK_IsHalted()  returns FALSE (0000ms, 0643ms total)
T1860 010:147 JLINK_IsHalted()  returns FALSE (0000ms, 0643ms total)
T1860 010:248 JLINK_IsHalted()  returns FALSE (0000ms, 0643ms total)
T1860 010:349 JLINK_IsHalted()  returns FALSE (0000ms, 0643ms total)
T1860 010:450 JLINK_IsHalted()  returns FALSE (0000ms, 0643ms total)
T1860 010:552 JLINK_ReadMemU32(0xE0001004, 0x0001 Items, ...) -- CPU is running - Data: 48 32 98 02  returns 0x01 (0000ms, 0643ms total)
T1860 010:569 JLINK_IsHalted()  returns FALSE (0001ms, 0644ms total)
T1860 010:670 JLINK_IsHalted()  returns FALSE (0000ms, 0643ms total)
T1860 010:771 JLINK_IsHalted()  returns FALSE (0000ms, 0643ms total)
T1860 010:872 JLINK_IsHalted()  returns FALSE (0000ms, 0643ms total)
T1860 010:973 JLINK_IsHalted()  returns FALSE (0000ms, 0643ms total)
T1860 011:074 JLINK_ReadMemU32(0xE0001004, 0x0001 Items, ...) -- CPU is running - Data: 48 32 98 02  returns 0x01 (0000ms, 0643ms total)
T1860 011:099 JLINK_IsHalted()  returns FALSE (0001ms, 0644ms total)
T1860 011:201 JLINK_IsHalted()  returns FALSE (0000ms, 0643ms total)
T1860 011:302 JLINK_IsHalted()  returns FALSE (0000ms, 0643ms total)
T1860 011:404 JLINK_IsHalted()  returns FALSE (0000ms, 0643ms total)
T1860 011:505 JLINK_IsHalted()  returns FALSE (0000ms, 0643ms total)
T1860 011:606 JLINK_ReadMemU32(0xE0001004, 0x0001 Items, ...) -- CPU is running - Data: 48 32 98 02  returns 0x01 (0000ms, 0643ms total)
T1860 011:630 JLINK_IsHalted()  returns FALSE (0001ms, 0644ms total)
T1860 011:732 JLINK_IsHalted()  returns FALSE (0000ms, 0643ms total)
T1860 011:834 JLINK_IsHalted()  returns FALSE (0000ms, 0643ms total)
T1860 011:935 JLINK_IsHalted()  returns FALSE (0000ms, 0643ms total)
T1860 012:037 JLINK_IsHalted()  returns FALSE (0000ms, 0643ms total)
T1860 012:138 JLINK_ReadMemU32(0xE0001004, 0x0001 Items, ...) -- CPU is running - Data: 48 32 98 02  returns 0x01 (0000ms, 0643ms total)
T1860 012:146 JLINK_IsHalted()  returns FALSE (0001ms, 0644ms total)
T1860 012:247 JLINK_IsHalted()  returns FALSE (0000ms, 0643ms total)
T1860 012:348 JLINK_IsHalted()  returns FALSE (0000ms, 0643ms total)
T1860 012:450 JLINK_IsHalted()  returns FALSE (0000ms, 0643ms total)
T1860 012:551 JLINK_IsHalted()  returns FALSE (0000ms, 0643ms total)
T1860 012:652 JLINK_ReadMemU32(0xE0001004, 0x0001 Items, ...) -- CPU is running - Data: 48 32 98 02  returns 0x01 (0000ms, 0643ms total)
T1860 012:660 JLINK_IsHalted()  returns FALSE (0001ms, 0644ms total)
T1860 012:762 JLINK_IsHalted()  returns FALSE (0000ms, 0643ms total)
T1860 012:863 JLINK_IsHalted()  returns FALSE (0000ms, 0643ms total)
T1860 012:965 JLINK_IsHalted()  returns FALSE (0000ms, 0643ms total)
T1860 013:066 JLINK_IsHalted()  returns FALSE (0000ms, 0643ms total)
T1860 013:168 JLINK_ReadMemU32(0xE0001004, 0x0001 Items, ...) -- CPU is running - Data: 48 32 98 02  returns 0x01 (0000ms, 0643ms total)
T1860 013:193 JLINK_IsHalted()  returns FALSE (0001ms, 0644ms total)
T1860 013:295 JLINK_IsHalted()  returns FALSE (0000ms, 0643ms total)
T1860 013:396 JLINK_IsHalted()  returns FALSE (0000ms, 0643ms total)
T1860 013:498 JLINK_IsHalted()  returns FALSE (0000ms, 0643ms total)
T1860 013:599 JLINK_IsHalted()  returns FALSE (0000ms, 0643ms total)
T1860 013:699 JLINK_ReadMemU32(0xE0001004, 0x0001 Items, ...) -- CPU is running - Data: 48 32 98 02  returns 0x01 (0000ms, 0643ms total)
T1860 013:707 JLINK_IsHalted()  returns FALSE (0001ms, 0644ms total)
T1860 013:810 JLINK_IsHalted()  returns FALSE (0000ms, 0643ms total)
T1860 013:911 JLINK_IsHalted()  returns FALSE (0000ms, 0643ms total)
T1860 014:012 JLINK_IsHalted()  returns FALSE (0000ms, 0643ms total)
T1860 014:113 JLINK_IsHalted()  returns FALSE (0000ms, 0643ms total)
T1860 014:215 JLINK_ReadMemU32(0xE0001004, 0x0001 Items, ...) -- CPU is running - Data: 48 32 98 02  returns 0x01 (0000ms, 0643ms total)
T1860 014:232 JLINK_IsHalted()  returns FALSE (0001ms, 0644ms total)
T1860 014:334 JLINK_IsHalted()  returns FALSE (0000ms, 0643ms total)
T1860 014:435 JLINK_IsHalted()  returns FALSE (0000ms, 0643ms total)
T1860 014:536 JLINK_IsHalted()  returns FALSE (0000ms, 0643ms total)
T1860 014:636 JLINK_IsHalted()  returns FALSE (0000ms, 0643ms total)
T178C 014:687 JLINK_SetBPEx(Addr = 0x08005C42, Type = 0xFFFFFFF2) -- CPU is running -- CPU is running -- CPU_WriteMem(4 bytes @ 0xE0002000) -- CPU is running -- CPU_WriteMem(4 bytes @ 0xE0002010)  returns 0x00000006 (0002ms, 0645ms total)
T1860 014:737 JLINK_ReadMemU32(0xE0001004, 0x0001 Items, ...) -- CPU is running - Data: 48 32 98 02  returns 0x01 (0000ms, 0645ms total)
T1860 014:759 JLINK_IsHalted()  returns FALSE (0001ms, 0646ms total)
T1860 014:860 JLINK_IsHalted()  returns FALSE (0000ms, 0645ms total)
T1860 014:962 JLINK_IsHalted()  returns FALSE (0000ms, 0645ms total)
T1860 015:064 JLINK_IsHalted()  returns FALSE (0000ms, 0645ms total)
T1860 015:165 JLINK_IsHalted()  returns FALSE (0000ms, 0645ms total)
T1860 015:267 JLINK_ReadMemU32(0xE0001004, 0x0001 Items, ...) -- CPU is running - Data: 48 32 98 02  returns 0x01 (0000ms, 0645ms total)
T1860 015:275 JLINK_IsHalted()  returns FALSE (0001ms, 0646ms total)
T1860 015:377 JLINK_IsHalted()  returns FALSE (0000ms, 0645ms total)
T1860 015:478 JLINK_IsHalted()  returns FALSE (0000ms, 0645ms total)
T1860 015:579 JLINK_IsHalted()  returns FALSE (0000ms, 0645ms total)
T1860 015:680 JLINK_IsHalted()  returns FALSE (0000ms, 0645ms total)
T1860 015:782 JLINK_ReadMemU32(0xE0001004, 0x0001 Items, ...) -- CPU is running - Data: 48 32 98 02  returns 0x01 (0000ms, 0645ms total)
T1860 015:807 JLINK_IsHalted()  returns FALSE (0000ms, 0645ms total)
T1860 015:908 JLINK_IsHalted()  returns FALSE (0000ms, 0645ms total)
T1860 016:008 JLINK_IsHalted()  returns FALSE (0000ms, 0645ms total)
T1860 016:110 JLINK_IsHalted()  returns FALSE (0000ms, 0645ms total)
T1860 016:210 JLINK_IsHalted()  returns FALSE (0000ms, 0645ms total)
T1860 016:311 JLINK_ReadMemU32(0xE0001004, 0x0001 Items, ...) -- CPU is running - Data: 48 32 98 02  returns 0x01 (0000ms, 0645ms total)
T1860 016:318 JLINK_IsHalted()  returns FALSE (0001ms, 0646ms total)
T1860 016:419 JLINK_IsHalted()  returns FALSE (0000ms, 0645ms total)
T1860 016:521 JLINK_IsHalted()  returns FALSE (0000ms, 0645ms total)
T1860 016:622 JLINK_IsHalted()  returns FALSE (0000ms, 0645ms total)
T178C 016:713 JLINK_SetBPEx(Addr = 0x08005C32, Type = 0xFFFFFFF2) -- CPU is running -- CPU is running -- CPU_WriteMem(4 bytes @ 0xE0002000) -- CPU is running -- CPU_WriteMem(4 bytes @ 0xE0002014)  returns 0x00000007 (0001ms, 0646ms total)
T1860 016:723 JLINK_IsHalted()  returns FALSE (0000ms, 0646ms total)
T1860 016:824 JLINK_ReadMemU32(0xE0001004, 0x0001 Items, ...) -- CPU is running - Data: 48 32 98 02  returns 0x01 (0000ms, 0646ms total)
T1860 016:831 JLINK_IsHalted()  returns TRUE (0003ms, 0649ms total)
T1860 016:834 JLINK_Halt()  returns 0x00 (0000ms, 0646ms total)
T1860 016:834 JLINK_IsHalted()  returns TRUE (0000ms, 0646ms total)
T1860 016:834 JLINK_IsHalted()  returns TRUE (0000ms, 0646ms total)
T1860 016:834 JLINK_IsHalted()  returns TRUE (0000ms, 0646ms total)
T1860 016:834 JLINK_ReadReg(R15 (PC))  returns 0x08005C32 (0000ms, 0646ms total)
T1860 016:834 JLINK_ReadReg(XPSR)  returns 0x01000000 (0000ms, 0646ms total)
T1860 016:834 JLINK_ClrBPEx(BPHandle = 0x00000004)  returns 0x00 (0000ms, 0646ms total)
T1860 016:835 JLINK_ClrBPEx(BPHandle = 0x00000005)  returns 0x00 (0000ms, 0646ms total)
T1860 016:835 JLINK_ClrBPEx(BPHandle = 0x00000006)  returns 0x00 (0000ms, 0646ms total)
T1860 016:835 JLINK_ClrBPEx(BPHandle = 0x00000007)  returns 0x00 (0000ms, 0646ms total)
T1860 016:835 JLINK_ReadMemU32(0xE000ED30, 0x0001 Items, ...) -- CPU_ReadMem(4 bytes @ 0xE000ED30) - Data: 02 00 00 00  returns 0x01 (0000ms, 0646ms total)
T1860 016:835 JLINK_ReadMemU32(0xE0001028, 0x0001 Items, ...) -- CPU_ReadMem(4 bytes @ 0xE0001028) - Data: 00 00 00 00  returns 0x01 (0001ms, 0647ms total)
T1860 016:836 JLINK_ReadMemU32(0xE0001038, 0x0001 Items, ...) -- CPU_ReadMem(4 bytes @ 0xE0001038) - Data: 00 02 00 00  returns 0x01 (0001ms, 0648ms total)
T1860 016:837 JLINK_ReadMemU32(0xE0001048, 0x0001 Items, ...) -- CPU_ReadMem(4 bytes @ 0xE0001048) - Data: 00 00 00 00  returns 0x01 (0000ms, 0648ms total)
T1860 016:837 JLINK_ReadMemU32(0xE0001058, 0x0001 Items, ...) -- CPU_ReadMem(4 bytes @ 0xE0001058) - Data: 00 00 00 00  returns 0x01 (0001ms, 0649ms total)
T1860 016:838 JLINK_ReadReg(R0)  returns 0x10000000 (0000ms, 0649ms total)
T1860 016:838 JLINK_ReadReg(R1)  returns 0xE000ED04 (0000ms, 0649ms total)
T1860 016:838 JLINK_ReadReg(R2)  returns 0x20001498 (0000ms, 0649ms total)
T1860 016:838 JLINK_ReadReg(R3)  returns 0x20001498 (0000ms, 0649ms total)
T1860 016:838 JLINK_ReadReg(R4)  returns 0x00000001 (0000ms, 0649ms total)
T1860 016:838 JLINK_ReadReg(R5)  returns 0x00000000 (0000ms, 0649ms total)
T1860 016:838 JLINK_ReadReg(R6)  returns 0xA5A5A5A5 (0000ms, 0649ms total)
T1860 016:838 JLINK_ReadReg(R7)  returns 0xA5A5A5A5 (0000ms, 0649ms total)
T1860 016:838 JLINK_ReadReg(R8)  returns 0xA5A5A5A5 (0000ms, 0649ms total)
T1860 016:838 JLINK_ReadReg(R9)  returns 0xA5A5A5A5 (0000ms, 0649ms total)
T1860 016:838 JLINK_ReadReg(R10)  returns 0xA5A5A5A5 (0000ms, 0649ms total)
T1860 016:838 JLINK_ReadReg(R11)  returns 0xA5A5A5A5 (0000ms, 0649ms total)
T1860 016:838 JLINK_ReadReg(R12)  returns 0xA5A5A5A5 (0000ms, 0649ms total)
T1860 016:838 JLINK_ReadReg(R13 (SP))  returns 0x200009E0 (0000ms, 0649ms total)
T1860 016:838 JLINK_ReadReg(R14)  returns 0x0800989D (0000ms, 0649ms total)
T1860 016:838 JLINK_ReadReg(R15 (PC))  returns 0x08005C32 (0000ms, 0649ms total)
T1860 016:838 JLINK_ReadReg(XPSR)  returns 0x01000000 (0000ms, 0649ms total)
T1860 016:838 JLINK_ReadReg(MSP)  returns 0x20002530 (0000ms, 0649ms total)
T1860 016:838 JLINK_ReadReg(PSP)  returns 0x200009E0 (0000ms, 0649ms total)
T1860 016:838 JLINK_ReadReg(CFBP)  returns 0x02000000 (0000ms, 0649ms total)
T1860 016:838 JLINK_ReadReg(FPSCR)  returns 0x00000000 (0005ms, 0654ms total)
T1860 016:843 JLINK_ReadReg(FPS0)  returns 0x00000000 (0000ms, 0654ms total)
T1860 016:843 JLINK_ReadReg(FPS1)  returns 0x00000000 (0000ms, 0654ms total)
T1860 016:843 JLINK_ReadReg(FPS2)  returns 0x00000000 (0000ms, 0654ms total)
T1860 016:843 JLINK_ReadReg(FPS3)  returns 0x00000000 (0000ms, 0654ms total)
T1860 016:843 JLINK_ReadReg(FPS4)  returns 0x00000000 (0000ms, 0654ms total)
T1860 016:843 JLINK_ReadReg(FPS5)  returns 0x00000000 (0000ms, 0654ms total)
T1860 016:843 JLINK_ReadReg(FPS6)  returns 0x00000000 (0000ms, 0654ms total)
T1860 016:843 JLINK_ReadReg(FPS7)  returns 0x00000000 (0000ms, 0654ms total)
T1860 016:843 JLINK_ReadReg(FPS8)  returns 0x00000000 (0000ms, 0654ms total)
T1860 016:843 JLINK_ReadReg(FPS9)  returns 0x00000000 (0000ms, 0654ms total)
T1860 016:843 JLINK_ReadReg(FPS10)  returns 0x00000000 (0000ms, 0654ms total)
T1860 016:843 JLINK_ReadReg(FPS11)  returns 0x00000000 (0000ms, 0654ms total)
T1860 016:843 JLINK_ReadReg(FPS12)  returns 0x00000000 (0000ms, 0654ms total)
T1860 016:843 JLINK_ReadReg(FPS13)  returns 0x00000000 (0000ms, 0654ms total)
T1860 016:843 JLINK_ReadReg(FPS14)  returns 0x00000000 (0000ms, 0654ms total)
T1860 016:843 JLINK_ReadReg(FPS15)  returns 0x00000000 (0000ms, 0654ms total)
T1860 016:843 JLINK_ReadReg(FPS16)  returns 0x00000000 (0000ms, 0654ms total)
T1860 016:843 JLINK_ReadReg(FPS17)  returns 0x00000000 (0000ms, 0654ms total)
T1860 016:843 JLINK_ReadReg(FPS18)  returns 0x00000000 (0000ms, 0654ms total)
T1860 016:843 JLINK_ReadReg(FPS19)  returns 0x00000000 (0001ms, 0655ms total)
T1860 016:844 JLINK_ReadReg(FPS20)  returns 0x00000000 (0000ms, 0655ms total)
T1860 016:844 JLINK_ReadReg(FPS21)  returns 0x00000000 (0000ms, 0655ms total)
T1860 016:844 JLINK_ReadReg(FPS22)  returns 0x00000000 (0000ms, 0655ms total)
T1860 016:844 JLINK_ReadReg(FPS23)  returns 0x00000000 (0000ms, 0655ms total)
T1860 016:844 JLINK_ReadReg(FPS24)  returns 0x00000000 (0000ms, 0655ms total)
T1860 016:844 JLINK_ReadReg(FPS25)  returns 0x00000000 (0000ms, 0655ms total)
T1860 016:844 JLINK_ReadReg(FPS26)  returns 0x00000000 (0000ms, 0655ms total)
T1860 016:844 JLINK_ReadReg(FPS27)  returns 0x00000000 (0000ms, 0655ms total)
T1860 016:844 JLINK_ReadReg(FPS28)  returns 0x00000000 (0000ms, 0655ms total)
T1860 016:844 JLINK_ReadReg(FPS29)  returns 0x00000000 (0000ms, 0655ms total)
T1860 016:844 JLINK_ReadReg(FPS30)  returns 0x00000000 (0000ms, 0655ms total)
T1860 016:844 JLINK_ReadReg(FPS31)  returns 0x00000000 (0000ms, 0655ms total)
T178C 016:844 JLINK_ReadMem (0x20000A04, 0x0004 Bytes, ...) -- CPU_ReadMem(64 bytes @ 0x20000A00) -- Updating C cache (64 bytes @ 0x20000A00) -- Read from C cache (4 bytes @ 0x20000A04) - Data: 89 8D 00 08  returns 0x00 (0001ms, 0656ms total)
T178C 016:845 JLINK_ReadMem (0x200009F4, 0x0004 Bytes, ...) -- CPU_ReadMem(64 bytes @ 0x200009C0) -- Updating C cache (64 bytes @ 0x200009C0) -- Read from C cache (4 bytes @ 0x200009F4) - Data: A5 A5 A5 A5  returns 0x00 (0001ms, 0657ms total)
T178C 016:846 JLINK_ReadMem (0x200009F8, 0x0004 Bytes, ...) -- Read from C cache (4 bytes @ 0x200009F8) - Data: A5 A5 A5 A5  returns 0x00 (0000ms, 0657ms total)
T178C 016:846 JLINK_ReadMem (0x200009FC, 0x0004 Bytes, ...) -- Read from C cache (4 bytes @ 0x200009FC) - Data: A5 A5 A5 A5  returns 0x00 (0000ms, 0657ms total)
T178C 016:846 JLINK_ReadMem (0x20000A00, 0x0004 Bytes, ...) -- Read from C cache (4 bytes @ 0x20000A00) - Data: A5 A5 A5 A5  returns 0x00 (0000ms, 0657ms total)
T178C 016:847 JLINK_ReadMem (0x20000A24, 0x0004 Bytes, ...) -- Read from C cache (4 bytes @ 0x20000A24) - Data: 48 14 00 20  returns 0x00 (0000ms, 0657ms total)
T178C 016:847 JLINK_ReadMem (0x20000A08, 0x0004 Bytes, ...) -- Read from C cache (4 bytes @ 0x20000A08) - Data: A5 A5 A5 A5  returns 0x00 (0000ms, 0657ms total)
T178C 016:847 JLINK_ReadMem (0x20000A0C, 0x0004 Bytes, ...) -- Read from C cache (4 bytes @ 0x20000A0C) - Data: A5 A5 A5 A5  returns 0x00 (0000ms, 0657ms total)
T178C 016:847 JLINK_ReadMem (0x20000A10, 0x0004 Bytes, ...) -- Read from C cache (4 bytes @ 0x20000A10) - Data: 00 00 00 00  returns 0x00 (0000ms, 0657ms total)
T178C 016:847 JLINK_ReadMem (0x20000A14, 0x0004 Bytes, ...) -- Read from C cache (4 bytes @ 0x20000A14) - Data: 60 00 00 80  returns 0x00 (0000ms, 0657ms total)
T178C 016:847 JLINK_ReadMem (0x20000A18, 0x0004 Bytes, ...) -- Read from C cache (4 bytes @ 0x20000A18) - Data: 94 09 00 20  returns 0x00 (0000ms, 0657ms total)
T178C 016:847 JLINK_ReadMem (0x20000A1C, 0x0004 Bytes, ...) -- Read from C cache (4 bytes @ 0x20000A1C) - Data: 64 00 00 00  returns 0x00 (0000ms, 0657ms total)
T178C 016:847 JLINK_ReadMem (0x20000A20, 0x0004 Bytes, ...) -- Read from C cache (4 bytes @ 0x20000A20) - Data: 48 14 00 20  returns 0x00 (0000ms, 0657ms total)
T178C 016:847 JLINK_ReadMem (0x00000000, 0x0004 Bytes, ...) -- CPU_ReadMem(4 bytes @ 0x00000004) -- CPU_ReadMem(64 bytes @ 0x08000000) -- Updating C cache (64 bytes @ 0x08000000) -- Read from C cache (4 bytes @ 0x08000000) - Data: 50 25 00 20  returns 0x00 (0002ms, 0659ms total)
T178C 016:850 JLINK_ReadMemU32(0xE0001004, 0x0001 Items, ...) - Data: 48 32 98 02  returns 0x01 (0000ms, 0659ms total)
T1860 020:006 JLINK_ReadMem (0x08005C32, 0x0002 Bytes, ...) -- CPU_ReadMem(64 bytes @ 0x08005C00) -- Updating C cache (64 bytes @ 0x08005C00) -- Read from C cache (2 bytes @ 0x08005C32) - Data: E4 B2  returns 0x00 (0001ms, 0660ms total)
T1860 020:007 JLINK_ReadMem (0x08005C34, 0x003C Bytes, ...) -- CPU_ReadMem(64 bytes @ 0x08005C40) -- Updating C cache (64 bytes @ 0x08005C40) -- Read from C cache (60 bytes @ 0x08005C34) - Data: 0A 2C F5 D3 14 4F 4F F4 80 76 0A 2C 02 D0 FF F7 ...  returns 0x00 (0001ms, 0661ms total)
T1860 020:008 JLINK_Step() -- Read from C cache (2 bytes @ 0x08005C32) -- CPU_ReadMem(4 bytes @ 0xE000ED18) -- CPU_WriteMem(4 bytes @ 0xE000ED18) -- CPU_ReadMem(4 bytes @ 0xE000ED18) -- CPU_WriteMem(4 bytes @ 0xE000ED18) -- Simulated  returns 0x00 (0003ms, 0664ms total)
T1860 020:011 JLINK_ReadReg(R15 (PC))  returns 0x08005C34 (0000ms, 0664ms total)
T1860 020:011 JLINK_ReadReg(XPSR)  returns 0x01000000 (0000ms, 0664ms total)
T1860 020:011 JLINK_Step() -- Read from C cache (2 bytes @ 0x08005C34) -- Simulated  returns 0x00 (0000ms, 0664ms total)
T1860 020:011 JLINK_ReadReg(R15 (PC))  returns 0x08005C36 (0000ms, 0664ms total)
T1860 020:011 JLINK_ReadReg(XPSR)  returns 0x81000000 (0000ms, 0664ms total)
T1860 020:011 JLINK_Step() -- Read from C cache (2 bytes @ 0x08005C36) -- Simulated  returns 0x00 (0000ms, 0664ms total)
T1860 020:011 JLINK_ReadReg(R15 (PC))  returns 0x08005C24 (0000ms, 0664ms total)
T1860 020:011 JLINK_ReadReg(XPSR)  returns 0x81000000 (0000ms, 0664ms total)
T1860 020:011 JLINK_ReadReg(R0)  returns 0x10000000 (0000ms, 0664ms total)
T1860 020:011 JLINK_ReadReg(R1)  returns 0xE000ED04 (0000ms, 0664ms total)
T1860 020:011 JLINK_ReadReg(R2)  returns 0x20001498 (0000ms, 0664ms total)
T1860 020:011 JLINK_ReadReg(R3)  returns 0x20001498 (0000ms, 0664ms total)
T1860 020:011 JLINK_ReadReg(R4)  returns 0x00000001 (0000ms, 0664ms total)
T1860 020:011 JLINK_ReadReg(R5)  returns 0x00000000 (0000ms, 0664ms total)
T1860 020:011 JLINK_ReadReg(R6)  returns 0xA5A5A5A5 (0000ms, 0664ms total)
T1860 020:011 JLINK_ReadReg(R7)  returns 0xA5A5A5A5 (0000ms, 0664ms total)
T1860 020:011 JLINK_ReadReg(R8)  returns 0xA5A5A5A5 (0000ms, 0664ms total)
T1860 020:011 JLINK_ReadReg(R9)  returns 0xA5A5A5A5 (0000ms, 0664ms total)
T1860 020:011 JLINK_ReadReg(R10)  returns 0xA5A5A5A5 (0000ms, 0664ms total)
T1860 020:011 JLINK_ReadReg(R11)  returns 0xA5A5A5A5 (0000ms, 0664ms total)
T1860 020:011 JLINK_ReadReg(R12)  returns 0xA5A5A5A5 (0000ms, 0664ms total)
T1860 020:011 JLINK_ReadReg(R13 (SP))  returns 0x200009E0 (0000ms, 0664ms total)
T1860 020:011 JLINK_ReadReg(R14)  returns 0x0800989D (0000ms, 0664ms total)
T1860 020:011 JLINK_ReadReg(R15 (PC))  returns 0x08005C24 (0000ms, 0664ms total)
T1860 020:011 JLINK_ReadReg(XPSR)  returns 0x81000000 (0000ms, 0664ms total)
T1860 020:011 JLINK_ReadReg(MSP)  returns 0x20002530 (0000ms, 0664ms total)
T1860 020:012 JLINK_ReadReg(PSP)  returns 0x200009E0 (0000ms, 0664ms total)
T1860 020:012 JLINK_ReadReg(CFBP)  returns 0x02000000 (0000ms, 0664ms total)
T1860 020:012 JLINK_ReadReg(FPSCR)  returns 0x00000000 (0000ms, 0664ms total)
T1860 020:012 JLINK_ReadReg(FPS0)  returns 0x00000000 (0000ms, 0664ms total)
T1860 020:012 JLINK_ReadReg(FPS1)  returns 0x00000000 (0000ms, 0664ms total)
T1860 020:012 JLINK_ReadReg(FPS2)  returns 0x00000000 (0000ms, 0664ms total)
T1860 020:012 JLINK_ReadReg(FPS3)  returns 0x00000000 (0000ms, 0664ms total)
T1860 020:012 JLINK_ReadReg(FPS4)  returns 0x00000000 (0000ms, 0664ms total)
T1860 020:012 JLINK_ReadReg(FPS5)  returns 0x00000000 (0000ms, 0664ms total)
T1860 020:012 JLINK_ReadReg(FPS6)  returns 0x00000000 (0000ms, 0664ms total)
T1860 020:012 JLINK_ReadReg(FPS7)  returns 0x00000000 (0000ms, 0664ms total)
T1860 020:012 JLINK_ReadReg(FPS8)  returns 0x00000000 (0000ms, 0664ms total)
T1860 020:012 JLINK_ReadReg(FPS9)  returns 0x00000000 (0000ms, 0664ms total)
T1860 020:012 JLINK_ReadReg(FPS10)  returns 0x00000000 (0000ms, 0664ms total)
T1860 020:012 JLINK_ReadReg(FPS11)  returns 0x00000000 (0000ms, 0664ms total)
T1860 020:012 JLINK_ReadReg(FPS12)  returns 0x00000000 (0000ms, 0664ms total)
T1860 020:012 JLINK_ReadReg(FPS13)  returns 0x00000000 (0000ms, 0664ms total)
T1860 020:012 JLINK_ReadReg(FPS14)  returns 0x00000000 (0000ms, 0664ms total)
T1860 020:012 JLINK_ReadReg(FPS15)  returns 0x00000000 (0000ms, 0664ms total)
T1860 020:012 JLINK_ReadReg(FPS16)  returns 0x00000000 (0000ms, 0664ms total)
T1860 020:012 JLINK_ReadReg(FPS17)  returns 0x00000000 (0000ms, 0664ms total)
T1860 020:012 JLINK_ReadReg(FPS18)  returns 0x00000000 (0000ms, 0664ms total)
T1860 020:012 JLINK_ReadReg(FPS19)  returns 0x00000000 (0000ms, 0664ms total)
T1860 020:012 JLINK_ReadReg(FPS20)  returns 0x00000000 (0000ms, 0664ms total)
T1860 020:012 JLINK_ReadReg(FPS21)  returns 0x00000000 (0000ms, 0664ms total)
T1860 020:012 JLINK_ReadReg(FPS22)  returns 0x00000000 (0000ms, 0664ms total)
T1860 020:012 JLINK_ReadReg(FPS23)  returns 0x00000000 (0000ms, 0664ms total)
T1860 020:012 JLINK_ReadReg(FPS24)  returns 0x00000000 (0000ms, 0664ms total)
T1860 020:012 JLINK_ReadReg(FPS25)  returns 0x00000000 (0000ms, 0664ms total)
T1860 020:012 JLINK_ReadReg(FPS26)  returns 0x00000000 (0000ms, 0664ms total)
T1860 020:012 JLINK_ReadReg(FPS27)  returns 0x00000000 (0000ms, 0664ms total)
T1860 020:012 JLINK_ReadReg(FPS28)  returns 0x00000000 (0000ms, 0664ms total)
T1860 020:012 JLINK_ReadReg(FPS29)  returns 0x00000000 (0000ms, 0664ms total)
T1860 020:012 JLINK_ReadReg(FPS30)  returns 0x00000000 (0000ms, 0664ms total)
T1860 020:012 JLINK_ReadReg(FPS31)  returns 0x00000000 (0000ms, 0664ms total)
T178C 020:012 JLINK_ReadMem (0x20000A04, 0x0004 Bytes, ...) -- Read from C cache (4 bytes @ 0x20000A04) - Data: 89 8D 00 08  returns 0x00 (0000ms, 0664ms total)
T178C 020:012 JLINK_ReadMem (0x200009F4, 0x0004 Bytes, ...) -- Read from C cache (4 bytes @ 0x200009F4) - Data: A5 A5 A5 A5  returns 0x00 (0000ms, 0664ms total)
T178C 020:012 JLINK_ReadMem (0x200009F8, 0x0004 Bytes, ...) -- Read from C cache (4 bytes @ 0x200009F8) - Data: A5 A5 A5 A5  returns 0x00 (0000ms, 0664ms total)
T178C 020:012 JLINK_ReadMem (0x200009FC, 0x0004 Bytes, ...) -- Read from C cache (4 bytes @ 0x200009FC) - Data: A5 A5 A5 A5  returns 0x00 (0000ms, 0664ms total)
T178C 020:012 JLINK_ReadMem (0x20000A00, 0x0004 Bytes, ...) -- Read from C cache (4 bytes @ 0x20000A00) - Data: A5 A5 A5 A5  returns 0x00 (0000ms, 0664ms total)
T178C 020:012 JLINK_ReadMem (0x20000A24, 0x0004 Bytes, ...) -- Read from C cache (4 bytes @ 0x20000A24) - Data: 48 14 00 20  returns 0x00 (0000ms, 0664ms total)
T178C 020:012 JLINK_ReadMem (0x20000A08, 0x0004 Bytes, ...) -- Read from C cache (4 bytes @ 0x20000A08) - Data: A5 A5 A5 A5  returns 0x00 (0000ms, 0664ms total)
T178C 020:012 JLINK_ReadMem (0x20000A0C, 0x0004 Bytes, ...) -- Read from C cache (4 bytes @ 0x20000A0C) - Data: A5 A5 A5 A5  returns 0x00 (0000ms, 0664ms total)
T178C 020:012 JLINK_ReadMem (0x20000A10, 0x0004 Bytes, ...) -- Read from C cache (4 bytes @ 0x20000A10) - Data: 00 00 00 00  returns 0x00 (0001ms, 0665ms total)
T178C 020:013 JLINK_ReadMem (0x20000A14, 0x0004 Bytes, ...) -- Read from C cache (4 bytes @ 0x20000A14) - Data: 60 00 00 80  returns 0x00 (0000ms, 0665ms total)
T178C 020:013 JLINK_ReadMem (0x20000A18, 0x0004 Bytes, ...) -- Read from C cache (4 bytes @ 0x20000A18) - Data: 94 09 00 20  returns 0x00 (0000ms, 0665ms total)
T178C 020:013 JLINK_ReadMem (0x20000A1C, 0x0004 Bytes, ...) -- Read from C cache (4 bytes @ 0x20000A1C) - Data: 64 00 00 00  returns 0x00 (0000ms, 0665ms total)
T178C 020:013 JLINK_ReadMem (0x20000A20, 0x0004 Bytes, ...) -- Read from C cache (4 bytes @ 0x20000A20) - Data: 48 14 00 20  returns 0x00 (0000ms, 0665ms total)
T178C 020:013 JLINK_ReadMem (0x00000000, 0x0004 Bytes, ...) -- Read from C cache (4 bytes @ 0x08000000) - Data: 50 25 00 20  returns 0x00 (0000ms, 0665ms total)
T178C 020:013 JLINK_ReadMemU32(0xE0001004, 0x0001 Items, ...) - Data: 4B 32 98 02  returns 0x01 (0000ms, 0665ms total)
T1860 020:749 JLINK_ReadMem (0x08005C24, 0x003C Bytes, ...) -- Read from C cache (60 bytes @ 0x08005C24) - Data: FF F7 90 FA 30 B1 64 20 03 F0 84 FB 64 1C E4 B2 ...  returns 0x00 (0000ms, 0665ms total)
T1860 020:749 JLINK_SetBPEx(Addr = 0x08005C28, Type = 0xFFFFFFF2)  returns 0x00000008 (0000ms, 0665ms total)
T1860 020:749 JLINK_SetBPEx(Addr = 0x08004DC4, Type = 0xFFFFFFF2)  returns 0x00000009 (0000ms, 0665ms total)
T1860 020:749 JLINK_SetBPEx(Addr = 0x08009030, Type = 0xFFFFFFF2)  returns 0x0000000A (0000ms, 0665ms total)
T1860 020:749 JLINK_SetBPEx(Addr = 0x08005C42, Type = 0xFFFFFFF2)  returns 0x0000000B (0000ms, 0665ms total)
T1860 020:749 JLINK_SetBPEx(Addr = 0x08005C32, Type = 0xFFFFFFF2)  returns 0x0000000C (0000ms, 0665ms total)
T1860 020:749 JLINK_Go() -- CPU_WriteMem(4 bytes @ 0xE0002000) -- CPU_WriteMem(4 bytes @ 0xE0002000) -- CPU_WriteMem(4 bytes @ 0xE0002000) -- CPU_WriteMem(4 bytes @ 0xE0002000) -- CPU_WriteMem(4 bytes @ 0xE0002000) -- CPU_ReadMem(4 bytes @ 0xE0001000) -- CPU_WriteMem(4 bytes @ 0xE0002008) -- CPU_WriteMem(4 bytes @ 0xE000200C) -- CPU_WriteMem(4 bytes @ 0xE0002010) -- CPU_WriteMem(4 bytes @ 0xE0002014) -- CPU_WriteMem(4 bytes @ 0xE0002018) -- CPU_WriteMem(4 bytes @ 0xE0001004) (0007ms, 0672ms total)
T1860 020:857 JLINK_IsHalted()  returns TRUE (0003ms, 0675ms total)
T1860 020:861 JLINK_Halt()  returns 0x00 (0000ms, 0672ms total)
T1860 020:861 JLINK_IsHalted()  returns TRUE (0000ms, 0672ms total)
T1860 020:861 JLINK_IsHalted()  returns TRUE (0000ms, 0672ms total)
T1860 020:861 JLINK_IsHalted()  returns TRUE (0000ms, 0672ms total)
T1860 020:861 JLINK_ReadReg(R15 (PC))  returns 0x08005C28 (0000ms, 0672ms total)
T1860 020:862 JLINK_ReadReg(XPSR)  returns 0x01000000 (0000ms, 0672ms total)
T1860 020:862 JLINK_ClrBPEx(BPHandle = 0x00000008)  returns 0x00 (0000ms, 0672ms total)
T1860 020:862 JLINK_ClrBPEx(BPHandle = 0x00000009)  returns 0x00 (0000ms, 0672ms total)
T1860 020:862 JLINK_ClrBPEx(BPHandle = 0x0000000A)  returns 0x00 (0000ms, 0672ms total)
T1860 020:862 JLINK_ClrBPEx(BPHandle = 0x0000000B)  returns 0x00 (0000ms, 0672ms total)
T1860 020:862 JLINK_ClrBPEx(BPHandle = 0x0000000C)  returns 0x00 (0000ms, 0672ms total)
T1860 020:862 JLINK_ReadMemU32(0xE000ED30, 0x0001 Items, ...) -- CPU_ReadMem(4 bytes @ 0xE000ED30) - Data: 03 00 00 00  returns 0x01 (0001ms, 0673ms total)
T1860 020:863 JLINK_ReadMemU32(0xE0001028, 0x0001 Items, ...) -- CPU_ReadMem(4 bytes @ 0xE0001028) - Data: 00 00 00 00  returns 0x01 (0001ms, 0674ms total)
T1860 020:864 JLINK_ReadMemU32(0xE0001038, 0x0001 Items, ...) -- CPU_ReadMem(4 bytes @ 0xE0001038) - Data: 00 02 00 00  returns 0x01 (0000ms, 0674ms total)
T1860 020:864 JLINK_ReadMemU32(0xE0001048, 0x0001 Items, ...) -- CPU_ReadMem(4 bytes @ 0xE0001048) - Data: 00 00 00 00  returns 0x01 (0001ms, 0675ms total)
T1860 020:865 JLINK_ReadMemU32(0xE0001058, 0x0001 Items, ...) -- CPU_ReadMem(4 bytes @ 0xE0001058) - Data: 00 00 00 00  returns 0x01 (0001ms, 0676ms total)
T1860 020:866 JLINK_Step() -- CPU_ReadMem(64 bytes @ 0x08005C00) -- Updating C cache (64 bytes @ 0x08005C00) -- Read from C cache (2 bytes @ 0x08005C28) -- CPU_ReadMem(4 bytes @ 0xE0001004) -- Simulated  returns 0x00 (0002ms, 0678ms total)
T1860 020:868 JLINK_ReadReg(R15 (PC))  returns 0x08005C2A (0000ms, 0678ms total)
T1860 020:868 JLINK_ReadReg(XPSR)  returns 0x01000000 (0000ms, 0678ms total)
T1860 020:868 JLINK_ReadReg(R0)  returns 0x00000001 (0000ms, 0678ms total)
T1860 020:868 JLINK_ReadReg(R1)  returns 0x00000020 (0001ms, 0679ms total)
T1860 020:869 JLINK_ReadReg(R2)  returns 0x00000001 (0000ms, 0679ms total)
T1860 020:869 JLINK_ReadReg(R3)  returns 0x20001400 (0000ms, 0679ms total)
T1860 020:869 JLINK_ReadReg(R4)  returns 0x00000001 (0000ms, 0679ms total)
T1860 020:869 JLINK_ReadReg(R5)  returns 0x00000000 (0000ms, 0679ms total)
T1860 020:869 JLINK_ReadReg(R6)  returns 0xA5A5A5A5 (0000ms, 0679ms total)
T1860 020:869 JLINK_ReadReg(R7)  returns 0xA5A5A5A5 (0000ms, 0679ms total)
T1860 020:869 JLINK_ReadReg(R8)  returns 0xA5A5A5A5 (0000ms, 0679ms total)
T1860 020:869 JLINK_ReadReg(R9)  returns 0xA5A5A5A5 (0000ms, 0679ms total)
T1860 020:869 JLINK_ReadReg(R10)  returns 0xA5A5A5A5 (0000ms, 0679ms total)
T1860 020:869 JLINK_ReadReg(R11)  returns 0xA5A5A5A5 (0000ms, 0679ms total)
T1860 020:869 JLINK_ReadReg(R12)  returns 0xA5A5A5A5 (0000ms, 0679ms total)
T1860 020:869 JLINK_ReadReg(R13 (SP))  returns 0x200009E0 (0000ms, 0679ms total)
T1860 020:869 JLINK_ReadReg(R14)  returns 0x080050D3 (0000ms, 0679ms total)
T1860 020:869 JLINK_ReadReg(R15 (PC))  returns 0x08005C2A (0000ms, 0679ms total)
T1860 020:869 JLINK_ReadReg(XPSR)  returns 0x01000000 (0000ms, 0679ms total)
T1860 020:869 JLINK_ReadReg(MSP)  returns 0x20002530 (0000ms, 0679ms total)
T1860 020:869 JLINK_ReadReg(PSP)  returns 0x200009E0 (0000ms, 0679ms total)
